
T1AD4 000:321 SEGGER J-Link V4.50l Log File (0076ms, 0397ms total)
T1AD4 000:321 DLL Compiled: Jul  9 2012 15:02:49 (0076ms, 0397ms total)
T1AD4 000:321 Logging started @ 2018-05-14 22:15 (0076ms, 0397ms total)
T1AD4 000:397 JLINK_SetWarnOutHandler(...) (0001ms, 0398ms total)
T1AD4 000:398 JLINK_OpenEx(...)
Firmware: J-Link V9 compiled Sep  1 2016 18:29:50
Hardware: V9.40
S/N: 59403278
Feature(s): RDI, GDB, FlashDL, FlashBP, JFlash  returns O.K. (0012ms, 0410ms total)
T1AD4 000:410 JLINK_SetErrorOutHandler(...) (0000ms, 0410ms total)
T1AD4 000:410 JLINK_ExecCommand("ProjectFile = "D:\DPJ\test6\JLinkSettings.ini"", ...)
                JLINK_AddMirrorAreaEx(Addr = 0x00000000, Size = 0x00000000) (0001ms, 0001ms total)
              Device "UNSPECIFIED" selected (0 KB flash, 0 KB RAM).  returns 0x00 (0011ms, 0421ms total)
T1AD4 000:431 JLINK_ExecCommand("Device = LPC1114FBD48/301", ...)
                JLINK_AddMirrorAreaEx(Addr = 0x00000000, Size = 0x00000000) (0000ms, 0000ms total)
              Device "UNSPECIFIED" selected (0 KB flash, 0 KB RAM).  returns 0x00 (0011ms, 0433ms total)
T1AD4 000:443 JLINK_ExecCommand("DisableConnectionTimeout", ...)  returns 0x00 (0000ms, 0434ms total)
T1AD4 000:444 JLINK_GetHardwareVersion()  returns 0x16F30 (0000ms, 0434ms total)
T1AD4 000:444 JLINK_GetDLLVersion()  returns 45012 (0000ms, 0434ms total)
T1AD4 000:444 JLINK_GetFirmwareString(...) (0000ms, 0434ms total)
T1AD4 000:474 JLINK_GetDLLVersion()  returns 45012 (0000ms, 0434ms total)
T1AD4 000:474 JLINK_GetCompileDateTime() (0000ms, 0434ms total)
T1AD4 000:487 JLINK_GetFirmwareString(...) (0000ms, 0434ms total)
T1AD4 000:493 JLINK_GetHardwareVersion()  returns 0x16F30 (0000ms, 0435ms total)
T1AD4 000:509 JLINK_TIF_Select(JLINKARM_TIF_SWD)  returns 0x00 (0001ms, 0436ms total)
T1AD4 000:510 JLINK_SetSpeed(5000) (0000ms, 0436ms total)
T1AD4 000:510 JLINK_GetId() >0x108 TIF>Found SWD-DP with ID 0x0BB11477 >0x0D TIF> >0x21 TIF> >0x0D TIF> >0x28 TIF> >0x0D TIF> >0x28 TIF> >0x0D TIF> >0x21 TIF> >0x0D TIF> >0x21 TIF> >0x0D TIF> >0x28 TIF> >0x0D TIF> >0x21 TIF> >0x0D TIF> >0x21 TIF> >0x0D TIF> >0x21 TIF> >0x0D TIF> >0x21 TIF> >0x0D TIF> >0x21 TIF> >0x0D TIF> >0x28 TIF> >0x0D TIF> >0x28 TIF> >0x0D TIF> >0x21 TIF> >0x0D TIF> >0x21 TIF> >0x0D TIF> >0x28 TIF> >0x0D TIF> >0x21 TIF> >0x0D TIF> >0x21 TIF> >0x0D TIF> >0x28 TIF> >0x0D TIF>
 >0x21 TIF> >0x0D TIF> >0x21 TIF> >0x0D TIF> >0x28 TIF> >0x0D TIF> >0x28 TIF> >0x0D TIF> >0x28 TIF> >0x0D TIF> >0x21 TIF> >0x0D TIF> >0x21 TIF> >0x0D TIF> >0x28 TIF> >0x0D TIF> >0x28 TIF> >0x0D TIF> >0x28 TIF> >0x0D TIF> >0x28 TIF> >0x0D TIF> >0x28 TIF> >0x0D TIF> >0x21 TIF> >0x0D TIF> >0x21 TIF> >0x0D TIF> >0x21 TIF> >0x0D TIF> >0x28 TIF> >0x0D TIF> >0x21 TIF> >0x0D TIF> >0x21 TIF> >0x0D TIF> >0x28 TIF> >0x0D TIF> >0x21 TIF> >0x0D TIF> >0x21 TIF>FPUnit: 4 code (BP) slots and 0 literal slots >0x0D TIF>
 >0x28 TIF> >0x0D TIF> >0x21 TIF> >0x0D TIF> >0x21 TIF> >0x0D TIF> >0x28 TIF> >0x0D TIF> >0x28 TIF> >0x0D TIF> >0x28 TIF> >0x0D TIF> >0x21 TIF> >0x0D TIF> >0x21 TIF> >0x0D TIF> >0x28 TIF> >0x0D TIF> >0x21 TIF> >0x0D TIF> >0x21 TIF> >0x0D TIF> >0x28 TIF> >0x0D TIF> >0x21 TIF> >0x0D TIF> >0x21 TIF>Found Cortex-M0 r0p0, Little endian. >0x0D TIF> >0x21 TIF>  returns 0x0BB11477 (0029ms, 0465ms total)
T1AD4 000:539 JLINK_GetDLLVersion()  returns 45012 (0000ms, 0465ms total)
T1AD4 000:539 JLINK_CORE_GetFound()  returns 0x60000FF (0001ms, 0466ms total)
T1AD4 000:546 JLINK_GetDebugInfo(0x100) -- Value=0xE00FF003  returns 0x00 (0000ms, 0466ms total)
T1AD4 000:546 JLINK_GetDebugInfo(0x101)  returns 0xFFFFFFFF (0000ms, 0466ms total)
T1AD4 000:546 JLINK_ReadMem (0xE0041FF0, 0x0010 Bytes, ...) -- CPU is running -- CPU_ReadMem(16 bytes @ 0xE0041FF0) -- Data:  00 00 00 00 00 00 00 00 00 00 00 00 00 00 00 00  returns 0x00 (0001ms, 0467ms total)
T1AD4 000:547 JLINK_GetDebugInfo(0x102)  returns 0xFFFFFFFF (0000ms, 0467ms total)
T1AD4 000:547 JLINK_GetDebugInfo(0x103)  returns 0xFFFFFFFF (0000ms, 0467ms total)
T1AD4 000:547 JLINK_ReadMem (0xE0040FF0, 0x0010 Bytes, ...) -- CPU is running -- CPU_ReadMem(16 bytes @ 0xE0040FF0) -- Data:  00 00 00 00 00 00 00 00 00 00 00 00 00 00 00 00  returns 0x00 (0000ms, 0467ms total)
T1AD4 000:547 JLINK_GetDebugInfo(0x104)  returns 0xFFFFFFFF (0000ms, 0467ms total)
T1AD4 000:547 JLINK_GetDebugInfo(0x105)  returns 0xFFFFFFFF (0000ms, 0467ms total)
T1AD4 000:548 JLINK_GetDebugInfo(0x106)  returns 0xFFFFFFFF (0000ms, 0467ms total)
T1AD4 000:548 JLINK_GetDebugInfo(0x107)  returns 0xFFFFFFFF (0000ms, 0467ms total)
T1AD4 000:548 JLINK_GetDebugInfo(0x10C)  returns 0xFFFFFFFF (0000ms, 0467ms total)
T1AD4 000:548 JLINK_ReadMemU32(0xE000ED00, 0x0001 Items, ...) -- CPU is running -- CPU_ReadMem(4 bytes @ 0xE000ED00) -- Data:  00 C2 0C 41  returns 0x01 (0000ms, 0467ms total)
T1AD4 000:548 JLINK_SetResetType(JLINKARM_RESET_TYPE_NORMAL)  returns JLINKARM_RESET_TYPE_NORMAL (0000ms, 0467ms total)
T1AD4 000:548 JLINK_Reset() -- CPU is running -- CPU_WriteMem(4 bytes @ 0xE000EDF0) -- CPU is running -- CPU_WriteMem(4 bytes @ 0xE000EDFC) >0x35 TIF> -- CPU is running -- CPU_WriteMem(4 bytes @ 0xE000ED0C) -- CPU is running -- CPU_ReadMem(4 bytes @ 0xE000EDF0) -- CPU is running -- CPU_ReadMem(4 bytes @ 0xE000EDF0) -- CPU is running -- CPU_WriteMem(4 bytes @ 0xE000EDF0) -- CPU is running -- CPU_WriteMem(4 bytes @ 0xE000EDFC) -- CPU is running -- CPU_ReadMem(4 bytes @ 0xE000EDF0)
 -- CPU_WriteMem(4 bytes @ 0xE000EDFC) -- CPU_WriteMem(4 bytes @ 0xE000EDFC) -- CPU_WriteMem(4 bytes @ 0xE000EDFC) -- CPU_WriteMem(4 bytes @ 0xE0001020) -- CPU_WriteMem(4 bytes @ 0xE0001024) -- CPU_WriteMem(4 bytes @ 0xE0001028) -- CPU_WriteMem(4 bytes @ 0xE000EDFC) -- CPU_WriteMem(4 bytes @ 0xE0001028) -- CPU_ReadMem(4 bytes @ 0x00000004) -- CPU_WriteMem(4 bytes @ 0xE0002000) (0121ms, 0588ms total)
T1AD4 000:669 JLINK_Halt()  returns 0x00 (0001ms, 0589ms total)
T1AD4 000:670 JLINK_IsHalted()  returns TRUE (0000ms, 0589ms total)
T1AD4 000:670 JLINK_ReadMemU32(0xE000EDF0, 0x0001 Items, ...) -- CPU_ReadMem(4 bytes @ 0xE000EDF0) -- Data:  03 00 03 00  returns 0x01 (0001ms, 0590ms total)
T1AD4 000:671 JLINK_WriteU32(0xE000EDF0, 0xA05F0003) -- CPU_WriteMem(4 bytes @ 0xE000EDF0)  returns 0x00 (0001ms, 0591ms total)
T1AD4 000:672 JLINK_WriteU32(0xE000EDFC, 0x01000000) -- CPU_WriteMem(4 bytes @ 0xE000EDFC)  returns 0x00 (0000ms, 0591ms total)
T1AD4 000:708 JLINK_GetHWStatus(...)  returns 0x00 (0000ms, 0592ms total)
T1AD4 000:718 JLINK_GetNumBPUnits(Type = 0xFFFFFF00)  returns 0x04 (0000ms, 0592ms total)
T1AD4 000:718 JLINK_GetNumBPUnits(Type = 0xF0)  returns 0x2000 (0000ms, 0592ms total)
T1AD4 000:718 JLINK_GetNumWPUnits()  returns 0x02 (0000ms, 0592ms total)
T1AD4 000:727 JLINK_GetSpeed()  returns 0xFA0 (0000ms, 0592ms total)
T1AD4 000:736 JLINK_ReadMemU32(0xE000E004, 0x0001 Items, ...) -- CPU_ReadMem(4 bytes @ 0xE000E004) -- Data:  00 00 00 00  returns 0x01 (0000ms, 0592ms total)
T1AD4 000:736 JLINK_Halt()  returns 0x00 (0000ms, 0592ms total)
T1AD4 000:736 JLINK_IsHalted()  returns TRUE (0000ms, 0592ms total)
T1AD4 000:746 JLINK_WriteMem(0x10000000, 0x0170 Bytes, ...) -- Data:  00 BE 0A E0 0D 78 2D 06 68 40 08 24 40 00 00 D3 ... -- CPU_WriteMem(368 bytes @ 0x10000000)  returns 0x170 (0003ms, 0595ms total)
T1AD4 000:749 JLINK_WriteReg(R0, 0x00000000)  returns 0x00 (0000ms, 0595ms total)
T1AD4 000:749 JLINK_WriteReg(R1, 0x00B71B00)  returns 0x00 (0000ms, 0595ms total)
T1AD4 000:749 JLINK_WriteReg(R2, 0x00000001)  returns 0x00 (0000ms, 0595ms total)
T1AD4 000:749 JLINK_WriteReg(R3, 0x00000000)  returns 0x00 (0000ms, 0595ms total)
T1AD4 000:749 JLINK_WriteReg(R4, 0x00000000)  returns 0x00 (0000ms, 0595ms total)
T1AD4 000:749 JLINK_WriteReg(R5, 0x00000000)  returns 0x00 (0000ms, 0595ms total)
T1AD4 000:749 JLINK_WriteReg(R6, 0x00000000)  returns 0x00 (0000ms, 0595ms total)
T1AD4 000:749 JLINK_WriteReg(R7, 0x00000000)  returns 0x00 (0000ms, 0595ms total)
T1AD4 000:749 JLINK_WriteReg(R8, 0x00000000)  returns 0x00 (0001ms, 0596ms total)
T1AD4 000:750 JLINK_WriteReg(R9, 0x10000168)  returns 0x00 (0000ms, 0596ms total)
T1AD4 000:750 JLINK_WriteReg(R10, 0x00000000)  returns 0x00 (0000ms, 0596ms total)
T1AD4 000:750 JLINK_WriteReg(R11, 0x00000000)  returns 0x00 (0000ms, 0596ms total)
T1AD4 000:750 JLINK_WriteReg(R12, 0x00000000)  returns 0x00 (0000ms, 0596ms total)
T1AD4 000:750 JLINK_WriteReg(R13, 0x10000FE0)  returns 0x00 (0000ms, 0596ms total)
T1AD4 000:750 JLINK_WriteReg(R14, 0x10000001)  returns 0x00 (0000ms, 0596ms total)
T1AD4 000:750 JLINK_WriteReg(R15, 0x1000003C)  returns 0x00 (0001ms, 0597ms total)
T1AD4 000:751 JLINK_WriteReg(XPSR, 0x01000000)  returns 0x00 (0000ms, 0597ms total)
T1AD4 000:751 JLINK_WriteReg(MSP, 0x10000FE0)  returns 0x00 (0000ms, 0597ms total)
T1AD4 000:751 JLINK_WriteReg(PSP, 0x10000FE0)  returns 0x00 (0000ms, 0597ms total)
T1AD4 000:751 JLINK_WriteReg(CFBP, 0x00000000)  returns 0x00 (0000ms, 0597ms total)
T1AD4 000:751 JLINK_SetBPEx(Addr = 0x10000000, Type = 0xFFFFFFF2)  returns 0x00000001 (0000ms, 0597ms total)
T1AD4 000:751 JLINK_Go() -- CPU_WriteMem(4 bytes @ 0xE0002008) -- CPU_WriteMem(4 bytes @ 0xE000200C) -- CPU_WriteMem(4 bytes @ 0xE0002010) -- CPU_WriteMem(4 bytes @ 0xE0002014) (0003ms, 0600ms total)
T1AD4 000:754 JLINK_IsHalted()  returns TRUE (0002ms, 0602ms total)
T1AD4 000:756 JLINK_ReadReg(R15)  returns 0x10000000 (0000ms, 0600ms total)
T1AD4 000:756 JLINK_ClrBPEx(BPHandle = 0x00000001)  returns 0x00 (0000ms, 0600ms total)
T1AD4 000:756 JLINK_ReadReg(R0)  returns 0x00000000 (0000ms, 0600ms total)
T1AD4 000:757 JLINK_WriteReg(R0, 0x00000000)  returns 0x00 (0000ms, 0600ms total)
T1AD4 000:757 JLINK_WriteReg(R1, 0x00B71B00)  returns 0x00 (0000ms, 0600ms total)
T1AD4 000:757 JLINK_WriteReg(R2, 0x00000001)  returns 0x00 (0000ms, 0600ms total)
T1AD4 000:757 JLINK_WriteReg(R3, 0x00000000)  returns 0x00 (0000ms, 0600ms total)
T1AD4 000:757 JLINK_WriteReg(R4, 0x00000000)  returns 0x00 (0000ms, 0600ms total)
T1AD4 000:757 JLINK_WriteReg(R5, 0x00000000)  returns 0x00 (0000ms, 0600ms total)
T1AD4 000:757 JLINK_WriteReg(R6, 0x00000000)  returns 0x00 (0001ms, 0601ms total)
T1AD4 000:758 JLINK_WriteReg(R7, 0x00000000)  returns 0x00 (0000ms, 0601ms total)
T1AD4 000:758 JLINK_WriteReg(R8, 0x00000000)  returns 0x00 (0000ms, 0601ms total)
T1AD4 000:758 JLINK_WriteReg(R9, 0x10000168)  returns 0x00 (0000ms, 0601ms total)
T1AD4 000:758 JLINK_WriteReg(R10, 0x00000000)  returns 0x00 (0000ms, 0601ms total)
T1AD4 000:758 JLINK_WriteReg(R11, 0x00000000)  returns 0x00 (0000ms, 0601ms total)
T1AD4 000:758 JLINK_WriteReg(R12, 0x00000000)  returns 0x00 (0000ms, 0601ms total)
T1AD4 000:758 JLINK_WriteReg(R13, 0x10000FE0)  returns 0x00 (0000ms, 0601ms total)
T1AD4 000:759 JLINK_WriteReg(R14, 0x10000001)  returns 0x00 (0000ms, 0602ms total)
T1AD4 000:759 JLINK_WriteReg(R15, 0x10000064)  returns 0x00 (0000ms, 0602ms total)
T1AD4 000:759 JLINK_WriteReg(XPSR, 0x01000000)  returns 0x00 (0000ms, 0602ms total)
T1AD4 000:759 JLINK_WriteReg(MSP, 0x10000FE0)  returns 0x00 (0000ms, 0602ms total)
T1AD4 000:759 JLINK_WriteReg(PSP, 0x10000FE0)  returns 0x00 (0000ms, 0602ms total)
T1AD4 000:759 JLINK_WriteReg(CFBP, 0x00000000)  returns 0x00 (0000ms, 0602ms total)
T1AD4 000:759 JLINK_SetBPEx(Addr = 0x10000000, Type = 0xFFFFFFF2)  returns 0x00000002 (0000ms, 0602ms total)
T1AD4 000:759 JLINK_Go() -- CPU_WriteMem(4 bytes @ 0xE0002008) -- CPU_WriteMem(4 bytes @ 0xE000200C) -- CPU_WriteMem(4 bytes @ 0xE0002010) -- CPU_WriteMem(4 bytes @ 0xE0002014) (0002ms, 0604ms total)
T1AD4 000:761 JLINK_IsHalted()  returns FALSE (0000ms, 0604ms total)
T1AD4 000:835 JLINK_IsHalted()  returns FALSE (0000ms, 0604ms total)
T1AD4 000:838 JLINK_IsHalted()  returns FALSE (0000ms, 0604ms total)
T1AD4 000:840 JLINK_IsHalted()  returns FALSE (0000ms, 0604ms total)
T1AD4 000:846 JLINK_IsHalted()  returns FALSE (0000ms, 0604ms total)
T1AD4 000:848 JLINK_IsHalted()  returns FALSE (0000ms, 0604ms total)
T1AD4 000:849 JLINK_IsHalted()  returns FALSE (0000ms, 0604ms total)
T1AD4 000:851 JLINK_IsHalted()  returns FALSE (0000ms, 0604ms total)
T1AD4 000:853 JLINK_IsHalted()  returns FALSE (0001ms, 0605ms total)
T1AD4 000:856 JLINK_IsHalted()  returns FALSE (0000ms, 0604ms total)
T1AD4 000:865 JLINK_IsHalted()  returns TRUE (0002ms, 0606ms total)
T1AD4 000:868 JLINK_ReadReg(R15)  returns 0x10000000 (0000ms, 0604ms total)
T1AD4 000:868 JLINK_ClrBPEx(BPHandle = 0x00000002)  returns 0x00 (0000ms, 0604ms total)
T1AD4 000:868 JLINK_ReadReg(R0)  returns 0x00000000 (0001ms, 0605ms total)
T1AD4 000:926 JLINK_WriteReg(R0, 0x00000001)  returns 0x00 (0000ms, 0605ms total)
T1AD4 000:926 JLINK_WriteReg(R1, 0x00B71B00)  returns 0x00 (0000ms, 0605ms total)
T1AD4 000:926 JLINK_WriteReg(R2, 0x00000001)  returns 0x00 (0001ms, 0606ms total)
T1AD4 000:927 JLINK_WriteReg(R3, 0x00000000)  returns 0x00 (0000ms, 0606ms total)
T1AD4 000:927 JLINK_WriteReg(R4, 0x00000000)  returns 0x00 (0000ms, 0606ms total)
T1AD4 000:927 JLINK_WriteReg(R5, 0x00000000)  returns 0x00 (0001ms, 0607ms total)
T1AD4 000:928 JLINK_WriteReg(R6, 0x00000000)  returns 0x00 (0000ms, 0607ms total)
T1AD4 000:928 JLINK_WriteReg(R7, 0x00000000)  returns 0x00 (0000ms, 0607ms total)
T1AD4 000:928 JLINK_WriteReg(R8, 0x00000000)  returns 0x00 (0001ms, 0608ms total)
T1AD4 000:929 JLINK_WriteReg(R9, 0x10000168)  returns 0x00 (0000ms, 0608ms total)
T1AD4 000:929 JLINK_WriteReg(R10, 0x00000000)  returns 0x00 (0000ms, 0608ms total)
T1AD4 000:929 JLINK_WriteReg(R11, 0x00000000)  returns 0x00 (0001ms, 0609ms total)
T1AD4 000:930 JLINK_WriteReg(R12, 0x00000000)  returns 0x00 (0000ms, 0609ms total)
T1AD4 000:930 JLINK_WriteReg(R13, 0x10000FE0)  returns 0x00 (0000ms, 0609ms total)
T1AD4 000:930 JLINK_WriteReg(R14, 0x10000001)  returns 0x00 (0000ms, 0609ms total)
T1AD4 000:930 JLINK_WriteReg(R15, 0x10000060)  returns 0x00 (0001ms, 0610ms total)
T1AD4 000:931 JLINK_WriteReg(XPSR, 0x01000000)  returns 0x00 (0000ms, 0610ms total)
T1AD4 000:931 JLINK_WriteReg(MSP, 0x10000FE0)  returns 0x00 (0000ms, 0610ms total)
T1AD4 000:931 JLINK_WriteReg(PSP, 0x10000FE0)  returns 0x00 (0001ms, 0611ms total)
T1AD4 000:932 JLINK_WriteReg(CFBP, 0x00000000)  returns 0x00 (0000ms, 0611ms total)
T1AD4 000:932 JLINK_SetBPEx(Addr = 0x10000000, Type = 0xFFFFFFF2)  returns 0x00000003 (0000ms, 0611ms total)
T1AD4 000:932 JLINK_Go() -- CPU_WriteMem(4 bytes @ 0xE0002008) -- CPU_WriteMem(4 bytes @ 0xE000200C) -- CPU_WriteMem(4 bytes @ 0xE0002010) -- CPU_WriteMem(4 bytes @ 0xE0002014) (0003ms, 0614ms total)
T1AD4 000:935 JLINK_IsHalted()  returns TRUE (0002ms, 0616ms total)
T1AD4 000:937 JLINK_ReadReg(R15)  returns 0x10000000 (0001ms, 0615ms total)
T1AD4 000:938 JLINK_ClrBPEx(BPHandle = 0x00000003)  returns 0x00 (0000ms, 0615ms total)
T1AD4 000:938 JLINK_ReadReg(R0)  returns 0x00000000 (0000ms, 0615ms total)
T1AD4 000:963 JLINK_WriteMem(0x10000000, 0x0170 Bytes, ...) -- Data:  00 BE 0A E0 0D 78 2D 06 68 40 08 24 40 00 00 D3 ... -- CPU_WriteMem(368 bytes @ 0x10000000)  returns 0x170 (0002ms, 0617ms total)
T1AD4 000:965 JLINK_WriteReg(R0, 0x00000000)  returns 0x00 (0000ms, 0617ms total)
T1AD4 000:965 JLINK_WriteReg(R1, 0x00B71B00)  returns 0x00 (0001ms, 0618ms total)
T1AD4 000:966 JLINK_WriteReg(R2, 0x00000002)  returns 0x00 (0000ms, 0618ms total)
T1AD4 000:966 JLINK_WriteReg(R3, 0x00000000)  returns 0x00 (0000ms, 0618ms total)
T1AD4 000:966 JLINK_WriteReg(R4, 0x00000000)  returns 0x00 (0000ms, 0618ms total)
T1AD4 000:966 JLINK_WriteReg(R5, 0x00000000)  returns 0x00 (0001ms, 0619ms total)
T1AD4 000:967 JLINK_WriteReg(R6, 0x00000000)  returns 0x00 (0000ms, 0619ms total)
T1AD4 000:967 JLINK_WriteReg(R7, 0x00000000)  returns 0x00 (0000ms, 0619ms total)
T1AD4 000:967 JLINK_WriteReg(R8, 0x00000000)  returns 0x00 (0000ms, 0619ms total)
T1AD4 000:968 JLINK_WriteReg(R9, 0x10000168)  returns 0x00 (0000ms, 0620ms total)
T1AD4 000:968 JLINK_WriteReg(R10, 0x00000000)  returns 0x00 (0000ms, 0620ms total)
T1AD4 000:968 JLINK_WriteReg(R11, 0x00000000)  returns 0x00 (0000ms, 0620ms total)
T1AD4 000:968 JLINK_WriteReg(R12, 0x00000000)  returns 0x00 (0001ms, 0621ms total)
T1AD4 000:969 JLINK_WriteReg(R13, 0x10000FE0)  returns 0x00 (0000ms, 0621ms total)
T1AD4 000:969 JLINK_WriteReg(R14, 0x10000001)  returns 0x00 (0000ms, 0621ms total)
T1AD4 000:969 JLINK_WriteReg(R15, 0x1000003C)  returns 0x00 (0001ms, 0622ms total)
T1AD4 000:970 JLINK_WriteReg(XPSR, 0x01000000)  returns 0x00 (0000ms, 0622ms total)
T1AD4 000:970 JLINK_WriteReg(MSP, 0x10000FE0)  returns 0x00 (0001ms, 0623ms total)
T1AD4 000:971 JLINK_WriteReg(PSP, 0x10000FE0)  returns 0x00 (0000ms, 0623ms total)
T1AD4 000:971 JLINK_WriteReg(CFBP, 0x00000000)  returns 0x00 (0000ms, 0623ms total)
T1AD4 000:971 JLINK_SetBPEx(Addr = 0x10000000, Type = 0xFFFFFFF2)  returns 0x00000004 (0001ms, 0624ms total)
T1AD4 000:972 JLINK_Go() -- CPU_WriteMem(4 bytes @ 0xE0002008) -- CPU_WriteMem(4 bytes @ 0xE000200C) -- CPU_WriteMem(4 bytes @ 0xE0002010) -- CPU_WriteMem(4 bytes @ 0xE0002014) (0003ms, 0627ms total)
T1AD4 000:975 JLINK_IsHalted()  returns TRUE (0002ms, 0629ms total)
T1AD4 000:977 JLINK_ReadReg(R15)  returns 0x10000000 (0000ms, 0627ms total)
T1AD4 000:977 JLINK_ClrBPEx(BPHandle = 0x00000004)  returns 0x00 (0001ms, 0628ms total)
T1AD4 000:978 JLINK_ReadReg(R0)  returns 0x00000000 (0000ms, 0628ms total)
T1AD4 000:979 JLINK_WriteMem(0x10000190, 0x0270 Bytes, ...) -- Data:  70 02 00 10 65 01 00 00 6D 01 00 00 6F 01 00 00 ... -- CPU_WriteMem(624 bytes @ 0x10000190)  returns 0x270 (0003ms, 0631ms total)
T1AD4 000:982 JLINK_WriteMem(0x10000400, 0x0190 Bytes, ...) -- Data:  40 31 08 63 01 20 48 63 00 20 48 63 01 20 48 63 ... -- CPU_WriteMem(400 bytes @ 0x10000400)  returns 0x190 (0002ms, 0633ms total)
T1AD4 000:984 JLINK_WriteReg(R0, 0x00000000)  returns 0x00 (0000ms, 0633ms total)
T1AD4 000:984 JLINK_WriteReg(R1, 0x00000400)  returns 0x00 (0001ms, 0634ms total)
T1AD4 000:985 JLINK_WriteReg(R2, 0x10000190)  returns 0x00 (0000ms, 0634ms total)
T1AD4 000:985 JLINK_WriteReg(R3, 0x00000000)  returns 0x00 (0000ms, 0634ms total)
T1AD4 000:985 JLINK_WriteReg(R4, 0x00000000)  returns 0x00 (0001ms, 0635ms total)
T1AD4 000:986 JLINK_WriteReg(R5, 0x00000000)  returns 0x00 (0000ms, 0635ms total)
T1AD4 000:986 JLINK_WriteReg(R6, 0x00000000)  returns 0x00 (0000ms, 0635ms total)
T1AD4 000:986 JLINK_WriteReg(R7, 0x00000000)  returns 0x00 (0001ms, 0636ms total)
T1AD4 000:987 JLINK_WriteReg(R8, 0x00000000)  returns 0x00 (0000ms, 0636ms total)
T1AD4 000:987 JLINK_WriteReg(R9, 0x10000168)  returns 0x00 (0000ms, 0636ms total)
T1AD4 000:987 JLINK_WriteReg(R10, 0x00000000)  returns 0x00 (0001ms, 0637ms total)
T1AD4 000:988 JLINK_WriteReg(R11, 0x00000000)  returns 0x00 (0000ms, 0637ms total)
T1AD4 000:988 JLINK_WriteReg(R12, 0x00000000)  returns 0x00 (0000ms, 0637ms total)
T1AD4 000:988 JLINK_WriteReg(R13, 0x10000FE0)  returns 0x00 (0001ms, 0638ms total)
T1AD4 000:989 JLINK_WriteReg(R14, 0x10000001)  returns 0x00 (0000ms, 0638ms total)
T1AD4 000:989 JLINK_WriteReg(R15, 0x100000E6)  returns 0x00 (0000ms, 0638ms total)
T1AD4 000:989 JLINK_WriteReg(XPSR, 0x01000000)  returns 0x00 (0001ms, 0639ms total)
T1AD4 000:990 JLINK_WriteReg(MSP, 0x10000FE0)  returns 0x00 (0000ms, 0639ms total)
T1AD4 000:990 JLINK_WriteReg(PSP, 0x10000FE0)  returns 0x00 (0000ms, 0639ms total)
T1AD4 000:991 JLINK_WriteReg(CFBP, 0x00000000)  returns 0x00 (0000ms, 0640ms total)
T1AD4 000:991 JLINK_SetBPEx(Addr = 0x10000000, Type = 0xFFFFFFF2)  returns 0x00000005 (0001ms, 0641ms total)
T1AD4 000:992 JLINK_Go() -- CPU_WriteMem(4 bytes @ 0xE0002008) -- CPU_WriteMem(4 bytes @ 0xE000200C) -- CPU_WriteMem(4 bytes @ 0xE0002010) -- CPU_WriteMem(4 bytes @ 0xE0002014) (0002ms, 0643ms total)
T1AD4 000:995 JLINK_IsHalted()  returns FALSE (0000ms, 0644ms total)
T1AD4 001:005 JLINK_IsHalted()  returns TRUE (0002ms, 0646ms total)
T1AD4 001:007 JLINK_ReadReg(R15)  returns 0x10000000 (0000ms, 0644ms total)
T1AD4 001:007 JLINK_ClrBPEx(BPHandle = 0x00000005)  returns 0x00 (0000ms, 0644ms total)
T1AD4 001:007 JLINK_ReadReg(R0)  returns 0x00000000 (0000ms, 0644ms total)
T1AD4 001:009 JLINK_WriteMem(0x10000190, 0x0270 Bytes, ...) -- Data:  20 21 08 43 09 49 08 60 08 46 00 68 40 21 08 43 ... -- CPU_WriteMem(624 bytes @ 0x10000190)  returns 0x270 (0002ms, 0646ms total)
T1AD4 001:011 JLINK_WriteMem(0x10000400, 0x0190 Bytes, ...) -- Data:  FF FF FF FF FF FF FF FF FF FF FF FF FF FF FF FF ... -- CPU_WriteMem(400 bytes @ 0x10000400)  returns 0x190 (0002ms, 0648ms total)
T1AD4 001:014 JLINK_WriteReg(R0, 0x00000400)  returns 0x00 (0000ms, 0648ms total)
T1AD4 001:014 JLINK_WriteReg(R1, 0x000000C4)  returns 0x00 (0000ms, 0648ms total)
T1AD4 001:014 JLINK_WriteReg(R2, 0x10000190)  returns 0x00 (0000ms, 0648ms total)
T1AD4 001:014 JLINK_WriteReg(R3, 0x00000000)  returns 0x00 (0000ms, 0648ms total)
T1AD4 001:014 JLINK_WriteReg(R4, 0x00000000)  returns 0x00 (0001ms, 0649ms total)
T1AD4 001:015 JLINK_WriteReg(R5, 0x00000000)  returns 0x00 (0000ms, 0649ms total)
T1AD4 001:015 JLINK_WriteReg(R6, 0x00000000)  returns 0x00 (0000ms, 0649ms total)
T1AD4 001:015 JLINK_WriteReg(R7, 0x00000000)  returns 0x00 (0000ms, 0649ms total)
T1AD4 001:015 JLINK_WriteReg(R8, 0x00000000)  returns 0x00 (0000ms, 0649ms total)
T1AD4 001:015 JLINK_WriteReg(R9, 0x10000168)  returns 0x00 (0000ms, 0649ms total)
T1AD4 001:015 JLINK_WriteReg(R10, 0x00000000)  returns 0x00 (0000ms, 0649ms total)
T1AD4 001:015 JLINK_WriteReg(R11, 0x00000000)  returns 0x00 (0000ms, 0649ms total)
T1AD4 001:015 JLINK_WriteReg(R12, 0x00000000)  returns 0x00 (0001ms, 0650ms total)
T1AD4 001:016 JLINK_WriteReg(R13, 0x10000FE0)  returns 0x00 (0000ms, 0650ms total)
T1AD4 001:016 JLINK_WriteReg(R14, 0x10000001)  returns 0x00 (0000ms, 0650ms total)
T1AD4 001:016 JLINK_WriteReg(R15, 0x100000E6)  returns 0x00 (0000ms, 0650ms total)
T1AD4 001:016 JLINK_WriteReg(XPSR, 0x01000000)  returns 0x00 (0000ms, 0650ms total)
T1AD4 001:016 JLINK_WriteReg(MSP, 0x10000FE0)  returns 0x00 (0000ms, 0650ms total)
T1AD4 001:016 JLINK_WriteReg(PSP, 0x10000FE0)  returns 0x00 (0000ms, 0650ms total)
T1AD4 001:016 JLINK_WriteReg(CFBP, 0x00000000)  returns 0x00 (0000ms, 0650ms total)
T1AD4 001:016 JLINK_SetBPEx(Addr = 0x10000000, Type = 0xFFFFFFF2)  returns 0x00000006 (0000ms, 0650ms total)
T1AD4 001:016 JLINK_Go() -- CPU_WriteMem(4 bytes @ 0xE0002008) -- CPU_WriteMem(4 bytes @ 0xE000200C) -- CPU_WriteMem(4 bytes @ 0xE0002010) -- CPU_WriteMem(4 bytes @ 0xE0002014) (0002ms, 0652ms total)
T1AD4 001:018 JLINK_IsHalted()  returns FALSE (0001ms, 0653ms total)
T1AD4 001:022 JLINK_IsHalted()  returns FALSE (0000ms, 0652ms total)
T1AD4 001:023 JLINK_IsHalted()  returns FALSE (0001ms, 0653ms total)
T1AD4 001:025 JLINK_IsHalted()  returns TRUE (0002ms, 0654ms total)
T1AD4 001:027 JLINK_ReadReg(R15)  returns 0x10000000 (0000ms, 0652ms total)
T1AD4 001:027 JLINK_ClrBPEx(BPHandle = 0x00000006)  returns 0x00 (0000ms, 0652ms total)
T1AD4 001:027 JLINK_ReadReg(R0)  returns 0x00000000 (0000ms, 0652ms total)
T1AD4 001:027 JLINK_WriteReg(R0, 0x00000002)  returns 0x00 (0000ms, 0652ms total)
T1AD4 001:027 JLINK_WriteReg(R1, 0x000000C4)  returns 0x00 (0001ms, 0653ms total)
T1AD4 001:028 JLINK_WriteReg(R2, 0x10000190)  returns 0x00 (0000ms, 0653ms total)
T1AD4 001:028 JLINK_WriteReg(R3, 0x00000000)  returns 0x00 (0000ms, 0653ms total)
T1AD4 001:028 JLINK_WriteReg(R4, 0x00000000)  returns 0x00 (0000ms, 0653ms total)
T1AD4 001:028 JLINK_WriteReg(R5, 0x00000000)  returns 0x00 (0000ms, 0653ms total)
T1AD4 001:028 JLINK_WriteReg(R6, 0x00000000)  returns 0x00 (0000ms, 0653ms total)
T1AD4 001:028 JLINK_WriteReg(R7, 0x00000000)  returns 0x00 (0000ms, 0653ms total)
T1AD4 001:028 JLINK_WriteReg(R8, 0x00000000)  returns 0x00 (0000ms, 0653ms total)
T1AD4 001:028 JLINK_WriteReg(R9, 0x10000168)  returns 0x00 (0000ms, 0653ms total)
T1AD4 001:028 JLINK_WriteReg(R10, 0x00000000)  returns 0x00 (0001ms, 0654ms total)
T1AD4 001:029 JLINK_WriteReg(R11, 0x00000000)  returns 0x00 (0000ms, 0654ms total)
T1AD4 001:029 JLINK_WriteReg(R12, 0x00000000)  returns 0x00 (0000ms, 0654ms total)
T1AD4 001:029 JLINK_WriteReg(R13, 0x10000FE0)  returns 0x00 (0000ms, 0654ms total)
T1AD4 001:029 JLINK_WriteReg(R14, 0x10000001)  returns 0x00 (0000ms, 0654ms total)
T1AD4 001:029 JLINK_WriteReg(R15, 0x10000060)  returns 0x00 (0000ms, 0654ms total)
T1AD4 001:029 JLINK_WriteReg(XPSR, 0x01000000)  returns 0x00 (0000ms, 0654ms total)
T1AD4 001:029 JLINK_WriteReg(MSP, 0x10000FE0)  returns 0x00 (0000ms, 0654ms total)
T1AD4 001:029 JLINK_WriteReg(PSP, 0x10000FE0)  returns 0x00 (0000ms, 0654ms total)
T1AD4 001:030 JLINK_WriteReg(CFBP, 0x00000000)  returns 0x00 (0000ms, 0655ms total)
T1AD4 001:030 JLINK_SetBPEx(Addr = 0x10000000, Type = 0xFFFFFFF2)  returns 0x00000007 (0000ms, 0655ms total)
T1AD4 001:030 JLINK_Go() -- CPU_WriteMem(4 bytes @ 0xE0002008) -- CPU_WriteMem(4 bytes @ 0xE000200C) -- CPU_WriteMem(4 bytes @ 0xE0002010) -- CPU_WriteMem(4 bytes @ 0xE0002014) (0002ms, 0657ms total)
T1AD4 001:032 JLINK_IsHalted()  returns TRUE (0002ms, 0659ms total)
T1AD4 001:034 JLINK_ReadReg(R15)  returns 0x10000000 (0000ms, 0657ms total)
T1AD4 001:034 JLINK_ClrBPEx(BPHandle = 0x00000007)  returns 0x00 (0000ms, 0657ms total)
T1AD4 001:034 JLINK_ReadReg(R0)  returns 0x00000000 (0000ms, 0657ms total)
T1AD4 001:109 JLINK_WriteMem(0x10000000, 0x0170 Bytes, ...) -- Data:  00 BE 0A E0 0D 78 2D 06 68 40 08 24 40 00 00 D3 ... -- CPU_WriteMem(368 bytes @ 0x10000000)  returns 0x170 (0002ms, 0659ms total)
T1AD4 001:111 JLINK_WriteReg(R0, 0x00000000)  returns 0x00 (0001ms, 0660ms total)
T1AD4 001:112 JLINK_WriteReg(R1, 0x00B71B00)  returns 0x00 (0000ms, 0660ms total)
T1AD4 001:112 JLINK_WriteReg(R2, 0x00000003)  returns 0x00 (0000ms, 0660ms total)
T1AD4 001:112 JLINK_WriteReg(R3, 0x00000000)  returns 0x00 (0001ms, 0661ms total)
T1AD4 001:113 JLINK_WriteReg(R4, 0x00000000)  returns 0x00 (0000ms, 0661ms total)
T1AD4 001:113 JLINK_WriteReg(R5, 0x00000000)  returns 0x00 (0000ms, 0661ms total)
T1AD4 001:113 JLINK_WriteReg(R6, 0x00000000)  returns 0x00 (0001ms, 0662ms total)
T1AD4 001:114 JLINK_WriteReg(R7, 0x00000000)  returns 0x00 (0000ms, 0662ms total)
T1AD4 001:114 JLINK_WriteReg(R8, 0x00000000)  returns 0x00 (0000ms, 0662ms total)
T1AD4 001:114 JLINK_WriteReg(R9, 0x10000168)  returns 0x00 (0000ms, 0662ms total)
T1AD4 001:114 JLINK_WriteReg(R10, 0x00000000)  returns 0x00 (0001ms, 0663ms total)
T1AD4 001:115 JLINK_WriteReg(R11, 0x00000000)  returns 0x00 (0000ms, 0663ms total)
T1AD4 001:115 JLINK_WriteReg(R12, 0x00000000)  returns 0x00 (0000ms, 0663ms total)
T1AD4 001:115 JLINK_WriteReg(R13, 0x10000FE0)  returns 0x00 (0000ms, 0663ms total)
T1AD4 001:115 JLINK_WriteReg(R14, 0x10000001)  returns 0x00 (0000ms, 0663ms total)
T1AD4 001:115 JLINK_WriteReg(R15, 0x1000003C)  returns 0x00 (0001ms, 0664ms total)
T1AD4 001:116 JLINK_WriteReg(XPSR, 0x01000000)  returns 0x00 (0000ms, 0664ms total)
T1AD4 001:116 JLINK_WriteReg(MSP, 0x10000FE0)  returns 0x00 (0000ms, 0664ms total)
T1AD4 001:116 JLINK_WriteReg(PSP, 0x10000FE0)  returns 0x00 (0000ms, 0664ms total)
T1AD4 001:116 JLINK_WriteReg(CFBP, 0x00000000)  returns 0x00 (0000ms, 0664ms total)
T1AD4 001:116 JLINK_SetBPEx(Addr = 0x10000000, Type = 0xFFFFFFF2)  returns 0x00000008 (0001ms, 0665ms total)
T1AD4 001:117 JLINK_Go() -- CPU_WriteMem(4 bytes @ 0xE0002008) -- CPU_WriteMem(4 bytes @ 0xE000200C) -- CPU_WriteMem(4 bytes @ 0xE0002010) -- CPU_WriteMem(4 bytes @ 0xE0002014) (0002ms, 0667ms total)
T1AD4 001:119 JLINK_IsHalted()  returns TRUE (0002ms, 0669ms total)
T1AD4 001:121 JLINK_ReadReg(R15)  returns 0x10000000 (0000ms, 0667ms total)
T1AD4 001:121 JLINK_ClrBPEx(BPHandle = 0x00000008)  returns 0x00 (0000ms, 0667ms total)
T1AD4 001:121 JLINK_ReadReg(R0)  returns 0x00000000 (0000ms, 0667ms total)
T1AD4 001:121 JLINK_WriteReg(R0, 0xFFFFFFFF)  returns 0x00 (0000ms, 0667ms total)
T1AD4 001:121 JLINK_WriteReg(R1, 0x00000000)  returns 0x00 (0000ms, 0667ms total)
T1AD4 001:122 JLINK_WriteReg(R2, 0x000004C4)  returns 0x00 (0000ms, 0668ms total)
T1AD4 001:122 JLINK_WriteReg(R3, 0x04C11DB7)  returns 0x00 (0000ms, 0668ms total)
T1AD4 001:122 JLINK_WriteReg(R4, 0x00000000)  returns 0x00 (0000ms, 0668ms total)
T1AD4 001:122 JLINK_WriteReg(R5, 0x00000000)  returns 0x00 (0000ms, 0668ms total)
T1AD4 001:122 JLINK_WriteReg(R6, 0x00000000)  returns 0x00 (0000ms, 0668ms total)
T1AD4 001:122 JLINK_WriteReg(R7, 0x00000000)  returns 0x00 (0000ms, 0668ms total)
T1AD4 001:123 JLINK_WriteReg(R8, 0x00000000)  returns 0x00 (0000ms, 0669ms total)
T1AD4 001:123 JLINK_WriteReg(R9, 0x10000168)  returns 0x00 (0000ms, 0669ms total)
T1AD4 001:123 JLINK_WriteReg(R10, 0x00000000)  returns 0x00 (0000ms, 0669ms total)
T1AD4 001:123 JLINK_WriteReg(R11, 0x00000000)  returns 0x00 (0000ms, 0669ms total)
T1AD4 001:123 JLINK_WriteReg(R12, 0x00000000)  returns 0x00 (0000ms, 0669ms total)
T1AD4 001:123 JLINK_WriteReg(R13, 0x10000FE0)  returns 0x00 (0001ms, 0670ms total)
T1AD4 001:124 JLINK_WriteReg(R14, 0x10000001)  returns 0x00 (0000ms, 0670ms total)
T1AD4 001:124 JLINK_WriteReg(R15, 0x10000002)  returns 0x00 (0000ms, 0670ms total)
T1AD4 001:124 JLINK_WriteReg(XPSR, 0x01000000)  returns 0x00 (0000ms, 0670ms total)
T1AD4 001:124 JLINK_WriteReg(MSP, 0x10000FE0)  returns 0x00 (0001ms, 0671ms total)
T1AD4 001:125 JLINK_WriteReg(PSP, 0x10000FE0)  returns 0x00 (0000ms, 0671ms total)
T1AD4 001:125 JLINK_WriteReg(CFBP, 0x00000000)  returns 0x00 (0000ms, 0671ms total)
T1AD4 001:125 JLINK_SetBPEx(Addr = 0x10000000, Type = 0xFFFFFFF2)  returns 0x00000009 (0000ms, 0671ms total)
T1AD4 001:125 JLINK_Go() -- CPU_WriteMem(4 bytes @ 0xE0002008) -- CPU_WriteMem(4 bytes @ 0xE000200C) -- CPU_WriteMem(4 bytes @ 0xE0002010) -- CPU_WriteMem(4 bytes @ 0xE0002014) (0002ms, 0673ms total)
T1AD4 001:127 JLINK_IsHalted()  returns FALSE (0001ms, 0674ms total)
T1AD4 001:150 JLINK_IsHalted()  returns TRUE (0001ms, 0674ms total)
T1AD4 001:152 JLINK_ReadReg(R15)  returns 0x10000000 (0000ms, 0673ms total)
T1AD4 001:152 JLINK_ClrBPEx(BPHandle = 0x00000009)  returns 0x00 (0000ms, 0673ms total)
T1AD4 001:152 JLINK_ReadReg(R0)  returns 0x8A5E675A (0000ms, 0673ms total)
T1AD4 001:155 JLINK_WriteReg(R0, 0x00000003)  returns 0x00 (0000ms, 0673ms total)
T1AD4 001:155 JLINK_WriteReg(R1, 0x00000000)  returns 0x00 (0000ms, 0673ms total)
T1AD4 001:155 JLINK_WriteReg(R2, 0x000004C4)  returns 0x00 (0000ms, 0673ms total)
T1AD4 001:155 JLINK_WriteReg(R3, 0x04C11DB7)  returns 0x00 (0000ms, 0673ms total)
T1AD4 001:155 JLINK_WriteReg(R4, 0x00000000)  returns 0x00 (0000ms, 0673ms total)
T1AD4 001:155 JLINK_WriteReg(R5, 0x00000000)  returns 0x00 (0000ms, 0673ms total)
T1AD4 001:156 JLINK_WriteReg(R6, 0x00000000)  returns 0x00 (0000ms, 0674ms total)
T1AD4 001:156 JLINK_WriteReg(R7, 0x00000000)  returns 0x00 (0000ms, 0674ms total)
T1AD4 001:156 JLINK_WriteReg(R8, 0x00000000)  returns 0x00 (0000ms, 0674ms total)
T1AD4 001:156 JLINK_WriteReg(R9, 0x10000168)  returns 0x00 (0000ms, 0674ms total)
T1AD4 001:156 JLINK_WriteReg(R10, 0x00000000)  returns 0x00 (0000ms, 0674ms total)
T1AD4 001:156 JLINK_WriteReg(R11, 0x00000000)  returns 0x00 (0000ms, 0674ms total)
T1AD4 001:156 JLINK_WriteReg(R12, 0x00000000)  returns 0x00 (0000ms, 0674ms total)
T1AD4 001:156 JLINK_WriteReg(R13, 0x10000FE0)  returns 0x00 (0000ms, 0674ms total)
T1AD4 001:156 JLINK_WriteReg(R14, 0x10000001)  returns 0x00 (0001ms, 0675ms total)
T1AD4 001:157 JLINK_WriteReg(R15, 0x10000060)  returns 0x00 (0000ms, 0675ms total)
T1AD4 001:157 JLINK_WriteReg(XPSR, 0x01000000)  returns 0x00 (0000ms, 0675ms total)
T1AD4 001:157 JLINK_WriteReg(MSP, 0x10000FE0)  returns 0x00 (0000ms, 0675ms total)
T1AD4 001:157 JLINK_WriteReg(PSP, 0x10000FE0)  returns 0x00 (0000ms, 0675ms total)
T1AD4 001:157 JLINK_WriteReg(CFBP, 0x00000000)  returns 0x00 (0000ms, 0675ms total)
T1AD4 001:157 JLINK_SetBPEx(Addr = 0x10000000, Type = 0xFFFFFFF2)  returns 0x0000000A (0000ms, 0675ms total)
T1AD4 001:158 JLINK_Go() -- CPU_WriteMem(4 bytes @ 0xE0002008) -- CPU_WriteMem(4 bytes @ 0xE000200C) -- CPU_WriteMem(4 bytes @ 0xE0002010) -- CPU_WriteMem(4 bytes @ 0xE0002014) (0001ms, 0677ms total)
T1AD4 001:160 JLINK_IsHalted()  returns TRUE (0001ms, 0679ms total)
T1AD4 001:161 JLINK_ReadReg(R15)  returns 0x10000000 (0000ms, 0678ms total)
T1AD4 001:161 JLINK_ClrBPEx(BPHandle = 0x0000000A)  returns 0x00 (0000ms, 0678ms total)
T1AD4 001:162 JLINK_ReadReg(R0)  returns 0x00000000 (0000ms, 0679ms total)
T1AD4 001:226 JLINK_WriteMem(0x10000000, 0x0002 Bytes, ...) -- Data:  FE E7 -- CPU_WriteMem(2 bytes @ 0x10000000)  returns 0x02 (0001ms, 0680ms total)
T1AD4 001:227 JLINK_SetResetType(JLINKARM_RESET_TYPE_NORMAL)  returns JLINKARM_RESET_TYPE_NORMAL (0000ms, 0680ms total)
T1AD4 001:227 JLINK_Reset() -- CPU_ReadMem(4 bytes @ 0x10000000) -- CPU_WriteMem(4 bytes @ 0x10000000) -- CPU_WriteMem(4 bytes @ 0xE000EDF0) -- CPU_WriteMem(4 bytes @ 0xE000EDFC) >0x35 TIF> -- CPU_WriteMem(4 bytes @ 0xE000ED0C) -- CPU_ReadMem(4 bytes @ 0xE000EDF0) -- CPU_ReadMem(4 bytes @ 0xE000EDF0) -- CPU_WriteMem(4 bytes @ 0xE000EDF0) -- CPU_WriteMem(4 bytes @ 0xE000EDFC) -- CPU is running -- CPU_ReadMem(4 bytes @ 0xE000EDF0) -- CPU_WriteMem(4 bytes @ 0xE000EDFC) -- CPU_WriteMem(4 bytes @ 0xE000EDFC)
 -- CPU_WriteMem(4 bytes @ 0xE000EDFC) -- CPU_WriteMem(4 bytes @ 0xE0001020) -- CPU_WriteMem(4 bytes @ 0xE0001024) -- CPU_WriteMem(4 bytes @ 0xE0001028) -- CPU_WriteMem(4 bytes @ 0xE0002008) -- CPU_WriteMem(4 bytes @ 0xE000200C) -- CPU_WriteMem(4 bytes @ 0xE0002010) -- CPU_WriteMem(4 bytes @ 0xE0002014) -- CPU_WriteMem(4 bytes @ 0xE000EDFC) -- CPU_WriteMem(4 bytes @ 0xE0001028) -- CPU_ReadMem(4 bytes @ 0x00000004) -- CPU_ReadMem(4 bytes @ 0xE0002000) -- CPU_ReadMem(4 bytes @ 0xE0002008)
 -- CPU_ReadMem(4 bytes @ 0xE000200C) -- CPU_ReadMem(4 bytes @ 0xE0002010) -- CPU_ReadMem(4 bytes @ 0xE0002014) -- CPU_WriteMem(4 bytes @ 0xE0002000) -- CPU_WriteMem(4 bytes @ 0xE0002008) -- CPU_WriteMem(4 bytes @ 0xE000200C) -- CPU_WriteMem(4 bytes @ 0xE0002010) -- CPU_WriteMem(4 bytes @ 0xE0002014) -- CPU_WriteMem(4 bytes @ 0xE0002000) -- CPU_WriteMem(4 bytes @ 0xE0002008) -- CPU_WriteMem(4 bytes @ 0xE000200C) -- CPU_WriteMem(4 bytes @ 0xE0002010) -- CPU_WriteMem(4 bytes @ 0xE0002014)
 -- CPU_WriteMem(4 bytes @ 0xE0002000) (0233ms, 0913ms total)
T1AD4 001:460 JLINK_Go() -- CPU_WriteMem(4 bytes @ 0xE0002008) -- CPU_WriteMem(4 bytes @ 0xE000200C) -- CPU_WriteMem(4 bytes @ 0xE0002010) -- CPU_WriteMem(4 bytes @ 0xE0002014) (0003ms, 0916ms total)
T1AD4 001:473 JLINK_Close() -- CPU is running -- CPU_WriteMem(4 bytes @ 0xE0002008) -- CPU is running -- CPU_WriteMem(4 bytes @ 0xE000200C) -- CPU is running -- CPU_WriteMem(4 bytes @ 0xE0002010) -- CPU is running -- CPU_WriteMem(4 bytes @ 0xE0002014) (0250ms, 1166ms total)
T1AD4 001:724 JLINK_Close() (0000ms, 1166ms total)
